# GHz S RI R 50

4.882812500000000e-02  9.9999945640739429e-01 -1.0426770412970572e-03
9.765625000000000e-02  9.9999782545759319e-01 -2.0854083583486320e-03
1.464843750000000e-01  9.9999510663454838e-01 -3.1282482385496186e-03
1.953125000000000e-01  9.9999129907786033e-01 -4.1712509925807481e-03
2.441406250000000e-01  9.9998640158230112e-01 -5.2144709660623930e-03
2.929687500000000e-01  9.9998041259714321e-01 -6.2579625512257575e-03
3.417968750000000e-01  9.9997333022529777e-01 -7.3017801985982315e-03
3.906250000000000e-01  9.9996515222225846e-01 -8.3459784287177961e-03
4.394531250000000e-01  9.9995587599485181e-01 -9.3906118438730167e-03
4.882812500000001e-01  9.9994549859979209e-01 -1.0435735139876633e-02
5.371093750000000e-01  9.9993401674203986e-01 -1.1481403117880663e-02
5.859375000000000e-01  9.9992142677296236e-01 -1.2527670696229374e-02
6.347656250000000e-01  9.9990772468829470e-01 -1.3574592922365562e-02
6.835937500000000e-01  9.9989290612589898e-01 -1.4622224984789000e-02
7.324218750000000e-01  9.9987696636332157e-01 -1.5670622225070031e-02
7.812500000000000e-01  9.9985990031514349e-01 -1.6719840149927584e-02
8.300781250000000e-01  9.9984170253012339e-01 -1.7769934443376326e-02
8.789062500000000e-01  9.9982236718813078e-01 -1.8820960978949416e-02
9.277343750000001e-01  9.9980188809686510e-01 -1.9872975831993839e-02
9.765625000000001e-01  9.9978025868836085e-01 -2.0926035292052593e-02
1.025390625000000e+00  9.9975747201527099e-01 -2.1980195875333102e-02
1.074218750000000e+00  9.9973352074693034e-01 -2.3035514337274753e-02
1.123046875000000e+00  9.9970839716519111e-01 -2.4092047685209582e-02
1.171875000000000e+00  9.9968209316003076e-01 -2.5149853191135565e-02
1.220703125000000e+00  9.9965460022492525e-01 -2.6208988404586169e-02
1.269531250000000e+00  9.9962590945198382e-01 -2.7269511165633451e-02
1.318359375000000e+00  9.9959601152684352e-01 -2.8331479617992931e-02
1.367187500000000e+00  9.9956489672331494e-01 -2.9394952222280103e-02
1.416015625000000e+00  9.9953255489777815e-01 -3.0459987769364597e-02
1.464843750000000e+00  9.9949897548332034e-01 -3.1526645393903360e-02
1.513671875000000e+00  9.9946414748361267e-01 -3.2594984587986424e-02
1.562500000000000e+00  9.9942805946651869e-01 -3.3665065214943529e-02
1.611328125000000e+00  9.9939069955742887e-01 -3.4736947523313126e-02
1.660156250000000e+00  9.9935205543231631e-01 -3.5810692160962082e-02
1.708984375000000e+00  9.9931211431050515e-01 -3.6886360189389594e-02
1.757812500000000e+00  9.9927086294714695e-01 -3.7964013098181086e-02
1.806640625000000e+00  9.9922828762539606e-01 -3.9043712819683107e-02
1.855468750000000e+00  9.9918437414827954e-01 -4.0125521743818150e-02
1.904296875000000e+00  9.9913910783024917e-01 -4.1209502733128414e-02
1.953125000000000e+00  9.9909247348841324e-01 -4.2295719138019994e-02
2.001953125000000e+00  9.9904445543343512e-01 -4.3384234812193181e-02
2.050781250000000e+00  9.9899503746009288e-01 -4.4475114128305876e-02
2.099609375000000e+00  9.9894420283748886e-01 -4.5568421993860707e-02
2.148437500000000e+00  9.9889193429890155e-01 -4.6664223867309437e-02
2.197265625000000e+00  9.9883821403126927e-01 -4.7762585774406244e-02
2.246093750000000e+00  9.9878302366429228e-01 -4.8863574324804683e-02
2.294921875000000e+00  9.9872634425915141e-01 -4.9967256728895258e-02
2.343750000000000e+00  9.9866815629682049e-01 -5.1073700814919340e-02
2.392578125000000e+00  9.9860843966596935e-01 -5.2182975046343422e-02
2.441406250000000e+00  9.9854717365044365e-01 -5.3295148539512671e-02
2.490234375000000e+00  9.9848433691630711e-01 -5.4410291081579409e-02
2.539062500000000e+00  9.9841990749843357e-01 -5.5528473148747551e-02
2.587890625000000e+00  9.9835386278663862e-01 -5.6649765924786426e-02
2.636718750000000e+00  9.9828617951133081e-01 -5.7774241319898272e-02
2.685546875000000e+00  9.9821683372867487e-01 -5.8901971989850421e-02
2.734375000000000e+00  9.9814580080524373e-01 -6.0033031355499269e-02
2.783203125000000e+00  9.9807305540215208e-01 -6.1167493622598552e-02
2.832031250000000e+00  9.9799857145864801e-01 -6.2305433801984035e-02
2.880859375000000e+00  9.9792232217514898e-01 -6.3446927730112263e-02
2.929687500000000e+00  9.9784427999570369e-01 -6.4592052089960272e-02
2.978515625000000e+00  9.9776441658986170e-01 -6.5740884432307495e-02
3.027343750000000e+00  9.9768270283392924e-01 -6.6893503197415938e-02
3.076171875000000e+00  9.9759910879159741e-01 -6.8049987737076365e-02
3.125000000000000e+00  9.9751360369391173e-01 -6.9210418337101925e-02
3.173828125000000e+00  9.9742615591857142e-01 -7.0374876240232018e-02
3.222656250000000e+00  9.9733673296853054e-01 -7.1543443669441972e-02
3.271484375000000e+00  9.9724530144987789e-01 -7.2716203851741254e-02
3.320312500000000e+00  9.9715182704897365e-01 -7.3893241042375324e-02
3.369140625000000e+00  9.9705627450881362e-01 -7.5074640549542271e-02
3.417968750000000e+00  9.9695860760459887e-01 -7.6260488759555753e-02
3.466796875000000e+00  9.9685878911848114e-01 -7.7450873162503014e-02
3.515625000000000e+00  9.9675678081345109e-01 -7.8645882378451187e-02
3.564453125000000e+00  9.9665254340635467e-01 -7.9845606184067719e-02
3.613281250000000e+00  9.9654603653998297e-01 -8.1050135539903936e-02
3.662109375000000e+00  9.9643721875422642e-01 -8.2259562618111404e-02
3.710937500000000e+00  9.9632604745624465e-01 -8.3473980830780448e-02
3.759765625000000e+00  9.9621247888962672e-01 -8.4693484858804444e-02
3.808593750000000e+00  9.9609646810249453e-01 -8.5918170681377914e-02
3.857421875000000e+00  9.9597796891452417e-01 -8.7148135606067670e-02
3.906250000000000e+00  9.9585693388283891e-01 -8.8383478299464052e-02
3.955078125000000e+00  9.9573331426672818e-01 -8.9624298818543530e-02
4.003906250000000e+00  9.9560705999116250e-01 -9.0870698642594741e-02
4.052734375000000e+00  9.9547811960904797e-01 -9.2122780705847118e-02
4.101562500000000e+00  9.9534644026217911e-01 -9.3380649430777535e-02
4.150390625000000e+00  9.9521196764084296e-01 -9.4644410762072917e-02
4.199218750000000e+00  9.9507464594202000e-01 -9.5914172201351566e-02
4.248046875000000e+00  9.9493441782613612e-01 -9.7190042842532395e-02
4.296875000000000e+00  9.9479122437229672e-01 -9.8472133408065918e-02
4.345703125000000e+00  9.9464500503197029e-01 -9.9760556285774002e-02
4.394531250000000e+00  9.9449569758103529e-01 -1.0105542556657382e-01
4.443359375000000e+00  9.9434323807014491e-01 -1.0235685708296235e-01
4.492187500000000e+00  9.9418756077334147e-01 -1.0366496844830217e-01
4.541015625000000e+00  9.9402859813485489e-01 -1.0497987909690570e-01
4.589843750000000e+00  9.9386628071400496e-01 -1.0630171032503832e-01
4.638671875000000e+00  9.9370053712814876e-01 -1.0763058533271441e-01
4.687500000000000e+00  9.9353129399358764e-01 -1.0896662926639611e-01
4.736328125000000e+00  9.9335847586435300e-01 -1.1030996926260533e-01
4.785156250000000e+00  9.9318200516879429e-01 -1.1166073449242983e-01
4.833984375000000e+00  9.9300180214387812e-01 -1.1301905620695847e-01
4.882812500000000e+00  9.9281778476710325e-01 -1.1438506778371380e-01
4.931640625000000e+00  9.9262986868594738e-01 -1.1575890477399191e-01
4.980468750000000e+00  9.9243796714473809e-01 -1.1714070495124071e-01
5.029296875000000e+00  9.9224199090884690e-01 -1.1853060836040984e-01
5.078125000000000e+00  9.9204184818609953e-01 -1.1992875736835981e-01
5.126953125000000e+00  9.9183744454528977e-01 -1.2133529671526445e-01
5.175781250000000e+00  9.9162868283167438e-01 -1.2275037356713285e-01
5.224609375000000e+00  9.9141546307933892e-01 -1.2417413756932294e-01
5.273437500000000e+00  9.9119768242028028e-01 -1.2560674090127050e-01
5.322265625000000e+00  9.9097523499011053e-01 -1.2704833833216253e-01
5.371093750000000e+00  9.9074801183019323e-01 -1.2849908727789969e-01
5.419921875000000e+00  9.9051590078611240e-01 -1.2995914785906792e-01
5.468750000000000e+00  9.9027878640228417e-01 -1.3142868296013438e-01
5.517578125000000e+00  9.9003654981257272e-01 -1.3290785828976970e-01
5.566406250000000e+00  9.8978906862673055e-01 -1.3439684244235833e-01
5.615234375000000e+00  9.8953621681248749e-01 -1.3589580696071993e-01
5.664062500000000e+00  9.8927786457312106e-01 -1.3740492639994573e-01
5.712890625000000e+00  9.8901387822028131e-01 -1.3892437839254879e-01
5.761718750000000e+00  9.8874412004190393e-01 -1.4045434371474874e-01
5.810546875000000e+00  9.8846844816498680e-01 -1.4199500635394902e-01
5.859375000000000e+00  9.8818671641299649e-01 -1.4354655357751073e-01
5.908203125000000e+00  9.8789877415768834e-01 -1.4510917600269790e-01
5.957031250000000e+00  9.8760446616510422e-01 -1.4668306766778366e-01
6.005859375000000e+00  9.8730363243547059e-01 -1.4826842610445157e-01
6.054687500000000e+00  9.8699610803674787e-01 -1.4986545241134419e-01
6.103515625000000e+00  9.8668172293154865e-01 -1.5147435132881526e-01
6.152343750000000e+00  9.8636030179714107e-01 -1.5309533131480196e-01
6.201171875000000e+00  9.8603166383820395e-01 -1.5472860462194438e-01
6.250000000000000e+00  9.8569562259205978e-01 -1.5637438737568948e-01
6.298828125000000e+00  9.8535198572599181e-01 -1.5803289965363745e-01
6.347656250000000e+00  9.8500055482634241e-01 -1.5970436556585127e-01
6.396484375000000e+00  9.8464112517900493e-01 -1.6138901333617256e-01
6.445312500000000e+00  9.8427348554090455e-01 -1.6308707538459116e-01
6.494140625000000e+00  9.8389741790209662e-01 -1.6479878841042922e-01
6.542968750000000e+00  9.8351269723802071e-01 -1.6652439347645701e-01
6.591796875000000e+00  9.8311909125150176e-01 -1.6826413609368007e-01
6.640625000000000e+00  9.8271636010397601e-01 -1.7001826630697672e-01
6.689453125000000e+00  9.8230425613551353e-01 -1.7178703878118018e-01
6.738281250000000e+00  9.8188252357308037e-01 -1.7357071288770431e-01
6.787109375000000e+00  9.8145089822648590e-01 -1.7536955279164929e-01
6.835937500000000e+00  9.8100910717149969e-01 -1.7718382753900680e-01
6.884765625000000e+00  9.8055686841949419e-01 -1.7901381114405771e-01
6.933593750000000e+00  9.8009389057298879e-01 -1.8085978267676447e-01
6.982421875000000e+00  9.7961987246648774e-01 -1.8272202634976958e-01
7.031250000000000e+00  9.7913450279184855e-01 -1.8460083160512766e-01
7.080078125000000e+00  9.7863745970751048e-01 -1.8649649320031136e-01
7.128906250000000e+00  9.7812841043079812e-01 -1.8840931129335500e-01
7.177734375000001e+00  9.7760701081250900e-01 -1.9033959152682733e-01
7.226562500000001e+00  9.7707290489295229e-01 -1.9228764511033300e-01
7.275390625000001e+00  9.7652572443852670e-01 -1.9425378890133310e-01
7.324218750000001e+00  9.7596508845795804e-01 -1.9623834548374586e-01
7.373046875000001e+00  9.7539060269719424e-01 -1.9824164324407972e-01
7.421875000000001e+00  9.7480185911193284e-01 -2.0026401644465988e-01
7.470703125000001e+00  9.7419843531674288e-01 -2.0230580529338274e-01
7.519531250000001e+00  9.7357989400961031e-01 -2.0436735600964778e-01
7.568359375000001e+00  9.7294578237078466e-01 -2.0644902088567899e-01
7.617187500000001e+00  9.7229563143460884e-01 -2.0855115834292776e-01
7.666015625000001e+00  9.7162895543311334e-01 -2.1067413298257062e-01
7.714843750000001e+00  9.7094525110993302e-01 -2.1281831562964038e-01
7.763671875000001e+00  9.7024399700318797e-01 -2.1498408336972247e-01
7.812500000000001e+00  9.6952465269573163e-01 -2.1717181957765863e-01
7.861328125000001e+00  9.6878665803128594e-01 -2.1938191393696507e-01
7.910156250000001e+00  9.6802943229472294e-01 -2.2161476244918932e-01
7.958984375000001e+00  9.6725237335479108e-01 -2.2387076743196657e-01
8.007812500000000e+00  9.6645485676747667e-01 -2.2615033750446897e-01
8.056640625000000e+00  9.6563623483802929e-01 -2.2845388755910023e-01
8.105468750000000e+00  9.6479583563976945e-01 -2.3078183871756941e-01
8.154296875000000e+00  9.6393296198739298e-01 -2.3313461827032200e-01
8.203125000000000e+00  9.6304689036279267e-01 -2.3551265959690607e-01
8.251953125000000e+00  9.6213686979086921e-01 -2.3791640206603037e-01
8.300781250000000e+00  9.6120212066313104e-01 -2.4034629091265103e-01
8.349609375000000e+00  9.6024183350642278e-01 -2.4280277709020326e-01
8.398437500000000e+00  9.5925516769422725e-01 -2.4528631709531337e-01
8.447265625000000e+00  9.5824125009773464e-01 -2.4779737276244707e-01
8.496093750000000e+00  9.5719917367386653e-01 -2.5033641102544191e-01
8.544921875000000e+00  9.5612799598720910e-01 -2.5290390364284182e-01
8.593750000000000e+00  9.5502673766281732e-01 -2.5550032688338575e-01
8.642578125000000e+00  9.5389438076653676e-01 -2.5812616116816156e-01
8.691406250000000e+00  9.5272986710957930e-01 -2.6078189066501406e-01
8.740234375000000e+00  9.5153209647378245e-01 -2.6346800283093275e-01
8.789062500000000e+00  9.5029992475393321e-01 -2.6618498789750256e-01
8.837890625000000e+00  9.4903216201342688e-01 -2.6893333829406463e-01
8.886718750000000e+00  9.4772757044937439e-01 -2.7171354800282882e-01
8.935546875000000e+00  9.4638486226314122e-01 -2.7452611183968695e-01
8.984375000000000e+00  9.4500269743215759e-01 -2.7737152465402298e-01
9.033203125000000e+00  9.4357968137891768e-01 -2.8025028043972533e-01
9.082031250000000e+00  9.4211436253264313e-01 -2.8316287134983903e-01
9.130859375000000e+00  9.4060522977938477e-01 -2.8610978660559838e-01
9.179687500000000e+00  9.3905070979602356e-01 -2.8909151129047939e-01
9.228515625000000e+00  9.3744916426354907e-01 -2.9210852501907808e-01
9.277343750000000e+00  9.3579888695531532e-01 -2.9516130046895911e-01
9.326171875000000e+00  9.3409810069533739e-01 -2.9825030176407386e-01
9.375000000000000e+00  9.3234495418267826e-01 -3.0137598269519006e-01
9.423828125000000e+00  9.3053751867687950e-01 -3.0453878476415858e-01
9.472656250000000e+00  9.2867378454063587e-01 -3.0773913503521938e-01
9.521484375000000e+00  9.2675165763536371e-01 -3.1097744377673747e-01
9.570312500000000e+00  9.2476895556586958e-01 -3.1425410187466540e-01
9.619140625000000e+00  9.2272340377061901e-01 -3.1756947799752860e-01
9.667968750000000e+00  9.2061263145446004e-01 -3.2092391549113541e-01
9.716796875000000e+00  9.1843416736133909e-01 -3.2431772897908601e-01
9.765625000000000e+00  9.1618543538498831e-01 -3.2775120064359653e-01
9.814453125000000e+00  9.1386375001654085e-01 -3.3122457615854889e-01
9.863281250000000e+00  9.1146631162901703e-01 -3.3473806024450381e-01
9.912109375000000e+00  9.0899020159958077e-01 -3.3829181181311951e-01
9.960937500000000e+00  9.0643237727191461e-01 -3.4188593866569889e-01
1.000976562500000e+01  9.0378966676289896e-01 -3.4552049170730048e-01
1.005859375000000e+01  9.0105876361946935e-01 -3.4919545863525531e-01
1.010742187500000e+01  8.9823622133363601e-01 -3.5291075705778235e-01
1.015625000000000e+01  8.9531844772661640e-01 -3.5666622699437989e-01
1.020507812500000e+01  8.9230169921590441e-01 -3.6046162270631948e-01
1.025390625000000e+01  8.8918207498232860e-01 -3.6429660380198320e-01
1.030273437500000e+01  8.8595551105881809e-01 -3.6817072555696256e-01
1.035156250000000e+01  8.8261777436655597e-01 -3.7208342838546327e-01
1.040039062500000e+01  8.7916445673035437e-01 -3.7603402639409672e-01
1.044921875000000e+01  8.7559096891037680e-01 -3.8002169494571097e-01
1.049804687500000e+01  8.7189253469513117e-01 -3.8404545715516442e-01
1.054687500000000e+01  8.6806418510843331e-01 -3.8810416923451369e-01
1.059570312500000e+01  8.6410075279201692e-01 -3.9219650460050220e-01
1.064453125000000e+01  8.5999686663614860e-01 -3.9632093665211465e-01
1.069335937500000e+01  8.5574694674203644e-01 -4.0047572012165966e-01
1.074218750000000e+01  8.5134519981408097e-01 -4.0465887089758434e-01
1.079101562500000e+01  8.4678561509319250e-01 -4.0886814421513235e-01
1.083984375000000e+01  8.4206196096192754e-01 -4.1310101110473613e-01
1.088867187500000e+01  8.3716778236853828e-01 -4.1735463298832093e-01
1.093750000000000e+01  8.3209639924018874e-01 -4.2162583430983291e-01
1.098632812500000e+01  8.2684090607818872e-01 -4.2591107308739662e-01
1.103515625000000e+01  8.2139417295515249e-01 -4.3020640927490222e-01
1.108398437500000e+01  8.1574884816247606e-01 -4.3450747082529589e-01
1.113281250000000e+01  8.0989736278895785e-01 -4.3880941735342849e-01
1.118164062500000e+01  8.0383193754695792e-01 -4.4310690130571451e-01
1.123046875000000e+01  7.9754459220046825e-01 -4.4739402655740135e-01
1.127929687500000e+01  7.9102715799189371e-01 -4.5166430437592137e-01
1.132812500000000e+01  7.8427129350858149e-01 -4.5591060671302580e-01
1.137695312500000e+01  7.7726850447995277e-01 -4.6012511681743662e-01
1.142578125000000e+01  7.7001016804516198e-01 -4.6429927719954889e-01
1.147460937500000e+01  7.6248756208728496e-01 -4.6842373502504114e-01
1.152343750000000e+01  7.5469190028310817e-01 -4.7248828507392499e-01
1.157226562500000e+01  7.4661437357706306e-01 -4.7648181046946531e-01
1.162109375000000e+01  7.3824619884023801e-01 -4.8039222146789345e-01
1.166992187500000e+01  7.2957867553411315e-01 -4.8420639269650156e-01
1.171875000000000e+01  7.2060325124631452e-01 -4.8791009934685647e-01
1.176757812500000e+01  7.1131159701100932e-01 -4.9148795296548625e-01
1.181640625000000e+01  7.0169569335844850e-01 -4.9492333764330876e-01
1.186523437500000e+01  6.9174792806553898e-01 -4.9819834758237930e-01
1.191406250000000e+01  6.8146120657006060e-01 -5.0129372722859189e-01
1.196289062500000e+01  6.7082907600238173e-01 -5.0418881538222549e-01
1.201171875000000e+01  6.5984586372263232e-01 -5.0686149495852217e-01
1.206054687500000e+01  6.4850683117236030e-01 -5.0928815034354935e-01
1.210937500000000e+01  6.3680834370047701e-01 -5.1144363459505116e-01
1.215820312500000e+01  6.2474805683777934e-01 -5.1330124905197805e-01
1.220703125000000e+01  6.1232511922771304e-01 -5.1483273824732534e-01
1.225585937500000e+01  5.9954039208541388e-01 -5.1600830334947678e-01
1.230468750000000e+01  5.8639668463313988e-01 -5.1679663767888240e-01
1.235351562500000e+01  5.7289900443325026e-01 -5.1716498814459377e-01
1.240234375000000e+01  5.5905482091717129e-01 -5.1707924669668004e-01
1.245117187500000e+01  5.4487433966513743e-01 -5.1650407607475302e-01
1.250000000000000e+01  5.3037078413773175e-01 -5.1540307421993081e-01
1.254882812500000e+01  5.1556068060328153e-01 -5.1373898167400756e-01
1.259765625000000e+01  5.0046414093301039e-01 -5.1147393608202218e-01
1.264648437500000e+01  4.8510513680096040e-01 -5.0856977749971222e-01
1.269531250000000e+01  4.6951175763244701e-01 -5.0498840754938779e-01
1.274414062500000e+01  4.5371644344336526e-01 -5.0069220452547014e-01
1.279296875000000e+01  4.3775618257118359e-01 -4.9564449529297061e-01
1.284179687500000e+01  4.2167266327168168e-01 -4.8981008322283753e-01
1.289062500000000e+01  4.0551236734326951e-01 -4.8315582945882224e-01
1.293945312500000e+01  3.8932659343053239e-01 -4.7565128251801092e-01
1.298828125000000e+01  3.7317139756960777e-01 -4.6726934863021941e-01
1.303710937500000e+01  3.5710743896591196e-01 -4.5798699237990559e-01
1.308593750000000e+01  3.4119972004846677e-01 -4.4778595422914358e-01
1.313476562500000e+01  3.2551721162550590e-01 -4.3665346851080439e-01
1.318359375000000e+01  3.1013235650328347e-01 -4.2458296264851308e-01
1.323242187500000e+01  2.9512044827849720e-01 -4.1157471589552286e-01
1.328125000000000e+01  2.8055888611388757e-01 -3.9763645400406827e-01
1.333007812500000e+01  2.6652631107777230e-01 -3.8278385517230396e-01
1.337890625000000e+01  2.5310163488507381e-01 -3.6704094257703007e-01
1.342773437500000e+01  2.4036297740694468e-01 -3.5044033998216645e-01
1.347656250000000e+01  2.2838653479320201e-01 -3.3302336942611760e-01
1.352539062500000e+01  2.1724540513429699e-01 -3.1483997387967810e-01
1.357421875000000e+01  2.0700840291396444e-01 -2.9594845298764705e-01
1.362304687500000e+01  1.9773889667010822e-01 -2.7641500636172389e-01
1.367187500000000e+01  1.8949370600025439e-01 -2.5631308613795556e-01
1.372070312500000e+01  1.8232209403375671e-01 -2.3572256823406235e-01
1.376953125000000e+01  1.7626488962691322e-01 -2.1472875950337372e-01
1.381835937500000e+01  1.7135376980639858e-01 -1.9342126527891415e-01
1.386718750000000e+01  1.6761072753398229e-01 -1.7189274814661895e-01
1.391601562500000e+01  1.6504774297033800e-01 -1.5023761372670433e-01
