! TOUCHSTONE file generated by CST MICROWAVE STUDIO
! Date and time: Tue Feb 18 19:55:59 2025
! Project name: MSLineZL_resistive.cst
! Parameters = {ZL=50; C=0; L=100; Lamb=0.05; Li=0; R=1e-13; W=20; Zp2=50; dlump=2; er=2; h=0.8; w1=2.62}
! Header version: 2024
! Port assignment regex: !\s*Touchstone port\s*([0-9]+)\s*=\s*(CST MWS port|CST DES external port|CST DES block port)\s*(.+)\s* \(\"(.*)\"\)(\s*mode\s*([0-9]+))?.*
! Touchstone port assignment:
! Touchstone port 1 = CST MWS port 1 ("")
# GHz S MA R 50
0                    0.005424439             180
0.01                 0.005424421        179.9225
0.02                 0.005424366         179.845
0.03                 0.005424274        179.7675
0.04                 0.005424145          179.69
0.05                 0.005423979        179.6125
0.06                 0.005423777         179.535
0.07                 0.005423538        179.4575
0.08                 0.005423262        179.3801
0.09                 0.005422949        179.3026
0.1                    0.0054226        179.2252
0.11                 0.005422213        179.1477
0.12                  0.00542179        179.0703
0.13                  0.00542133        178.9929
0.14                 0.005420833        178.9156
0.15                 0.005420299        178.8382
0.16                 0.005419729        178.7609
0.17                 0.005419121        178.6836
0.18                 0.005418476        178.6063
0.19                 0.005417795         178.529
0.2                  0.005417078        178.4518
0.21                 0.005416322        178.3746
0.22                 0.005415531        178.2975
0.23                 0.005414702        178.2203
0.24                 0.005413837        178.1432
0.25                 0.005412934        178.0662
0.26                 0.005411995        177.9891
0.27                 0.005411019        177.9122
0.28                 0.005410005        177.8352
0.29                 0.005408955        177.7583
0.3                  0.005407868        177.6815
0.31                 0.005406744        177.6047
0.32                 0.005405584        177.5279
0.33                 0.005404386        177.4512
0.34                 0.005403151        177.3746
0.35                 0.005401881         177.298
0.36                 0.005400572        177.2215
0.37                 0.005399227         177.145
0.38                 0.005397846        177.0686
0.39                 0.005396428        176.9922
0.4                  0.005394972         176.916
0.41                  0.00539348        176.8397
0.42                 0.005391951        176.7636
0.43                 0.005390386        176.6875
0.44                 0.005388785        176.6115
0.45                 0.005387146        176.5356
0.46                 0.005385471        176.4598
0.47                  0.00538376         176.384
0.48                 0.005382012        176.3084
0.49                 0.005380227        176.2328
0.5                  0.005378407        176.1573
0.51                  0.00537655        176.0819
0.52                 0.005374657        176.0066
0.53                 0.005372728        175.9313
0.54                 0.005370763        175.8563
0.55                 0.005368762        175.7812
0.56                 0.005366725        175.7063
0.57                 0.005364653        175.6315
0.58                 0.005362544        175.5568
0.59                   0.0053604        175.4822
0.6                  0.005358221        175.4077
0.61                 0.005356006        175.3334
0.62                 0.005353756        175.2591
0.63                 0.005351471         175.185
0.64                 0.005349151         175.111
0.65                 0.005346796        175.0371
0.66                 0.005344406        174.9634
0.67                 0.005341982        174.8898
0.68                 0.005339523        174.8163
0.69                 0.005337031         174.743
0.7                  0.005334504        174.6698
0.71                 0.005331942        174.5967
0.72                 0.005329348        174.5238
0.73                 0.005326719         174.451
0.74                 0.005324057        174.3783
0.75                 0.005321362        174.3059
0.76                 0.005318634        174.2335
0.77                 0.005315872        174.1614
0.78                 0.005313079        174.0894
0.79                 0.005310253        174.0175
0.8                  0.005307395        173.9458
0.81                 0.005304504        173.8743
0.82                 0.005301582        173.8029
0.83                 0.005298628        173.7317
0.84                 0.005295643        173.6607
0.85                 0.005292627        173.5898
0.86                  0.00528958        173.5191
0.87                 0.005286502        173.4486
0.88                 0.005283394        173.3783
0.89                 0.005280256        173.3081
0.9                  0.005277087        173.2381
0.91                  0.00527389        173.1684
0.92                 0.005270663        173.0988
0.93                 0.005267406        173.0293
0.94                 0.005264121        172.9601
0.95                 0.005260807        172.8911
0.96                 0.005257465        172.8222
0.97                 0.005254095        172.7536
0.98                 0.005250698        172.6851
0.99                 0.005247273        172.6168
1                     0.00524382        172.5488
1.01                 0.005240341        172.4809
1.02                 0.005236836        172.4132
1.03                 0.005233304        172.3457
1.04                 0.005229745        172.2785
1.05                 0.005226162        172.2114
1.06                 0.005222553        172.1445
1.07                 0.005218918        172.0778
1.08                 0.005215259        172.0114
1.09                 0.005211575        171.9451
1.1                  0.005207867         171.879
1.11                 0.005204135        171.8132
1.12                  0.00520038        171.7475
1.13                 0.005196601        171.6821
1.14                 0.005192798        171.6168
1.15                 0.005188973        171.5518
1.16                 0.005185125         171.487
1.17                 0.005181255        171.4223
1.18                 0.005177364        171.3579
1.19                  0.00517345        171.2937
1.2                  0.005169515        171.2297
1.21                 0.005165558        171.1659
1.22                 0.005161582        171.1023
1.23                 0.005157584        171.0389
1.24                 0.005153566        170.9756
1.25                 0.005149527        170.9126
1.26                  0.00514547        170.8498
1.27                 0.005141391        170.7872
1.28                 0.005137294        170.7248
1.29                 0.005133178        170.6626
1.3                  0.005129043        170.6006
1.31                 0.005124889        170.5388
1.32                 0.005120716        170.4772
1.33                 0.005116526        170.4157
1.34                 0.005112317        170.3545
1.35                  0.00510809        170.2935
1.36                 0.005103845        170.2326
1.37                 0.005099583        170.1719
1.38                 0.005095305        170.1114
1.39                 0.005091007        170.0511
1.4                  0.005086694         169.991
1.41                 0.005082365        169.9311
1.42                 0.005078017        169.8713
1.43                 0.005073654        169.8117
1.44                 0.005069274        169.7523
1.45                 0.005064878        169.6931
1.46                 0.005060465         169.634
1.47                 0.005056037        169.5751
1.48                 0.005051592        169.5164
1.49                 0.005047132        169.4578
1.5                  0.005042656        169.3994
1.51                 0.005038164        169.3412
1.52                 0.005033656        169.2831
1.53                 0.005029133        169.2252
1.54                 0.005024594        169.1674
1.55                  0.00502004        169.1098
1.56                  0.00501547        169.0524
1.57                 0.005010885        168.9951
1.58                 0.005006284        168.9379
1.59                 0.005001668        168.8809
1.6                  0.004997036         168.824
1.61                  0.00499239        168.7673
1.62                 0.004987726        168.7107
1.63                 0.004983049        168.6543
1.64                 0.004978354        168.5979
1.65                 0.004973645        168.5418
1.66                  0.00496892        168.4857
1.67                  0.00496418        168.4298
1.68                 0.004959422         168.374
1.69                  0.00495465        168.3183
1.7                  0.004949862        168.2628
1.71                 0.004945057        168.2074
1.72                 0.004940236        168.1521
1.73                 0.004935399        168.0969
1.74                 0.004930546        168.0419
1.75                 0.004925676         167.987
1.76                  0.00492079        167.9321
1.77                 0.004915886        167.8775
1.78                 0.004910966        167.8229
1.79                 0.004906028        167.7684
1.8                  0.004901073        167.7141
1.81                 0.004896102        167.6598
1.82                 0.004891113        167.6057
1.83                 0.004886106        167.5517
1.84                  0.00488108        167.4978
1.85                 0.004876037         167.444
1.86                 0.004870976        167.3903
1.87                 0.004865896        167.3367
1.88                 0.004860798        167.2832
1.89                  0.00485568        167.2299
1.9                  0.004850545        167.1766
1.91                 0.004845389        167.1235
1.92                 0.004840215        167.0704
1.93                 0.004835021        167.0175
1.94                 0.004829807        166.9647
1.95                 0.004824573         166.912
1.96                 0.004819319        166.8594
1.97                 0.004814045        166.8069
1.98                  0.00480875        166.7545
1.99                 0.004803434        166.7023
2                    0.004798098        166.6502
2.01                 0.004792741        166.5982
2.02                 0.004787362        166.5463
2.03                 0.004781961        166.4945
2.04                 0.004776539        166.4428
2.05                 0.004771095        166.3913
2.06                 0.004765629        166.3399
2.07                 0.004760141        166.2886
2.08                  0.00475463        166.2375
2.09                 0.004749097        166.1865
2.1                   0.00474354        166.1356
2.11                 0.004737961        166.0848
2.12                  0.00473236        166.0342
2.13                 0.004726735        165.9838
2.14                 0.004721086        165.9334
2.15                 0.004715413        165.8833
2.16                 0.004709718        165.8333
2.17                 0.004703998        165.7834
2.18                 0.004698255        165.7337
2.19                 0.004692487        165.6842
2.2                  0.004686695        165.6348
2.21                  0.00468088        165.5856
2.22                  0.00467504        165.5365
2.23                 0.004669174        165.4877
2.24                 0.004663286         165.439
2.25                 0.004657372        165.3905
2.26                 0.004651434        165.3422
2.27                 0.004645471        165.2941
2.28                 0.004639483        165.2462
2.29                 0.004633471        165.1984
2.3                  0.004627434        165.1509
2.31                 0.004621373        165.1036
2.32                 0.004615286        165.0565
2.33                 0.004609175        165.0096
2.34                 0.004603039         164.963
2.35                 0.004596879        164.9166
2.36                 0.004590693        164.8704
2.37                 0.004584484        164.8244
2.38                 0.004578249        164.7787
2.39                  0.00457199        164.7332
2.4                  0.004565707         164.688
2.41                 0.004559399         164.643
2.42                 0.004553068        164.5983
2.43                 0.004546712        164.5539
2.44                 0.004540332        164.5097
2.45                 0.004533928        164.4658
2.46                   0.0045275        164.4222
2.47                  0.00452105        164.3789
2.48                 0.004514575        164.3359
2.49                 0.004508077        164.2931
2.5                  0.004501557        164.2507
2.51                 0.004495013        164.2085
2.52                 0.004488447        164.1667
2.53                 0.004481859        164.1252
2.54                 0.004475248         164.084
2.55                 0.004468615        164.0431
2.56                  0.00446196        164.0026
2.57                 0.004455284        163.9624
2.58                 0.004448587        163.9225
2.59                 0.004441868         163.883
2.6                   0.00443513        163.8438
2.61                  0.00442837         163.805
2.62                  0.00442159        163.7665
2.63                 0.004414791        163.7284
2.64                 0.004407971        163.6907
2.65                 0.004401133        163.6533
2.66                 0.004394276        163.6163
2.67                   0.0043874        163.5796
2.68                 0.004380506        163.5434
2.69                 0.004373594        163.5075
2.7                  0.004366664        163.4721
2.71                 0.004359717         163.437
2.72                 0.004352752        163.4023
2.73                 0.004345772         163.368
2.74                 0.004338775        163.3341
2.75                 0.004331762        163.3006
2.76                 0.004324733        163.2676
2.77                  0.00431769        163.2349
2.78                 0.004310632        163.2027
2.79                 0.004303559        163.1708
2.8                  0.004296472        163.1394
2.81                 0.004289371        163.1084
2.82                 0.004282257        163.0779
2.83                  0.00427513        163.0477
2.84                 0.004267991         163.018
2.85                 0.004260838        162.9887
2.86                 0.004253675        162.9599
2.87                 0.004246499        162.9315
2.88                 0.004239313        162.9035
2.89                 0.004232115         162.876
2.9                  0.004224908        162.8489
2.91                  0.00421769        162.8222
2.92                 0.004210462         162.796
2.93                 0.004203225        162.7702
2.94                 0.004195979        162.7449
2.95                 0.004188724          162.72
2.96                  0.00418146        162.6955
2.97                  0.00417419        162.6715
2.98                  0.00416691         162.648
2.99                 0.004159623        162.6249
3                     0.00415233        162.6022
3.01                 0.004145029          162.58
3.02                 0.004137722        162.5582
3.03                 0.004130408        162.5369
3.04                 0.004123088         162.516
3.05                 0.004115763        162.4955
3.06                 0.004108432        162.4755
3.07                 0.004101096         162.456
3.08                 0.004093755        162.4368
3.09                 0.004086409        162.4182
3.1                  0.004079059        162.3999
3.11                 0.004071704        162.3821
3.12                 0.004064346        162.3648
3.13                 0.004056983        162.3479
3.14                 0.004049617        162.3314
3.15                 0.004042246        162.3153
3.16                 0.004034873        162.2997
3.17                 0.004027495        162.2845
3.18                 0.004020116        162.2698
3.19                 0.004012733        162.2555
3.2                  0.004005347        162.2416
3.21                 0.003997958        162.2281
3.22                 0.003990567        162.2151
3.23                 0.003983173        162.2025
3.24                 0.003975776        162.1903
3.25                 0.003968377        162.1785
3.26                 0.003960975        162.1672
3.27                 0.003953571        162.1563
3.28                 0.003946164        162.1458
3.29                 0.003938756        162.1357
3.3                  0.003931345         162.126
3.31                 0.003923932        162.1167
3.32                 0.003916516        162.1079
3.33                 0.003909097        162.0994
3.34                 0.003901677        162.0914
3.35                 0.003894254        162.0838
3.36                 0.003886828        162.0766
3.37                   0.0038794        162.0698
3.38                 0.003871969        162.0634
3.39                 0.003864535        162.0574
3.4                  0.003857097        162.0518
3.41                 0.003849658        162.0466
3.42                 0.003842215        162.0419
3.43                 0.003834769        162.0375
3.44                  0.00382732        162.0335
3.45                 0.003819867          162.03
3.46                 0.003812411        162.0268
3.47                  0.00380495        162.0241
3.48                 0.003797486        162.0217
3.49                 0.003790018        162.0198
3.5                  0.003782546        162.0183
3.51                 0.003775069        162.0172
3.52                 0.003767587        162.0164
3.53                 0.003760101        162.0162
3.54                 0.003752609        162.0163
3.55                 0.003745113        162.0168
3.56                 0.003737612        162.0178
3.57                 0.003730104        162.0192
3.58                 0.003722591         162.021
3.59                 0.003715073        162.0232
3.6                  0.003707547        162.0258
3.61                 0.003700016        162.0289
3.62                 0.003692478        162.0324
3.63                 0.003684934        162.0364
3.64                 0.003677382        162.0408
3.65                 0.003669824        162.0457
3.66                 0.003662258         162.051
3.67                 0.003654685        162.0567
3.68                 0.003647105        162.0629
3.69                 0.003639516        162.0696
3.7                  0.003631919        162.0768
3.71                 0.003624315        162.0844
3.72                 0.003616701        162.0925
3.73                  0.00360908        162.1011
3.74                  0.00360145        162.1102
3.75                 0.003593812        162.1198
3.76                 0.003586164        162.1299
3.77                 0.003578507        162.1405
3.78                 0.003570841        162.1516
3.79                 0.003563166        162.1633
3.8                  0.003555482        162.1755
3.81                 0.003547788        162.1883
3.82                 0.003540085        162.2016
3.83                 0.003532372        162.2154
3.84                  0.00352465        162.2299
3.85                 0.003516917        162.2449
3.86                 0.003509176        162.2605
3.87                 0.003501424        162.2767
3.88                 0.003493662        162.2935
3.89                 0.003485892        162.3109
3.9                  0.003478111         162.329
3.91                  0.00347032        162.3477
3.92                  0.00346252         162.367
3.93                  0.00345471         162.387
3.94                 0.003446891        162.4077
3.95                 0.003439062         162.429
3.96                 0.003431225        162.4511
